T5DC8 000:006.111   SEGGER J-Link V7.96h Log File
T5DC8 000:006.235   DLL Compiled: May 15 2024 15:33:59
T5DC8 000:006.240   Logging started @ 2026-07-25 13:11
T5DC8 000:006.244   Process: C:\Keil_v5\UV4\UV4.exe
T5DC8 000:006.252 - 6.248ms
T5DC8 000:006.260 JLINK_SetWarnOutHandler(...)
T5DC8 000:006.264 - 0.006ms
T5DC8 000:006.273 JLINK_OpenEx(...)
T5DC8 000:009.340   Firmware: J-Link ARM-OB STM32 compiled Aug 22 2012 19:52:04
T5DC8 000:011.358   Firmware: J-Link ARM-OB STM32 compiled Aug 22 2012 19:52:04
T5DC8 000:013.802   Hardware: V7.00
T5DC8 000:013.814   S/N: 20090928
T5DC8 000:013.820   OEM: SEGGER
T5DC8 000:013.826   Feature(s): JFlash, RDI, GDB, FlashDL, FlashBP
T5DC8 000:014.309   Bootloader: (Could not read)
T5DC8 000:015.451   TELNET listener socket opened on port 19021
T5DC8 000:015.542   WEBSRV WEBSRV_Init(): Starting webserver thread(s)
T5DC8 000:015.677   WEBSRV Webserver running on local port 19080
T5DC8 000:015.769   Looking for J-Link GUI Server exe at: C:\Keil_v5\ARM\Segger\JLinkGUIServer.exe
T5DC8 000:015.839   Looking for J-Link GUI Server exe at: C:\Program Files\SEGGER\JLink\JLinkGUIServer.exe
T5DC8 000:015.868   Forking J-Link GUI Server: C:\Program Files\SEGGER\JLink\JLinkGUIServer.exe
T5DC8 000:039.480   J-Link GUI Server info: "J-Link GUI server V7.86g "
T5DC8 000:039.663   J-Link GUI Server: Connection breakdown.
T5DC8 000:039.764 - 33.471ms returns "O.K."
T5DC8 000:039.789 JLINK_GetEmuCaps()
T5DC8 000:039.798 - 0.007ms returns 0x88EA5833
T5DC8 000:039.815 JLINK_TIF_GetAvailable(...)
T5DC8 000:040.262 - 0.447ms
T5DC8 000:040.277 JLINK_SetErrorOutHandler(...)
T5DC8 000:040.283 - 0.006ms
T5DC8 000:040.315 JLINK_ExecCommand("ProjectFile = "C:\Users\14706\Desktop\yjmµÄÖÇÕÏÐ¡³µ\Keil\JLinkSettings.ini"", ...). 
T5DC8 000:053.595   Ref file found at: C:\Keil_v5\ARM\Segger\JLinkDevices.ref
T5DC8 000:053.693   REF file references invalid XML file: C:\Program Files\SEGGER\JLink\JLinkDevices.xml
T5DC8 000:054.929 - 14.617ms returns 0x00
T5DC8 000:059.628 JLINK_ExecCommand("Device = MSPM0G3507", ...). 
T5DC8 000:063.063   Device "MSPM0G3507" selected.
T5DC8 000:063.329 - 3.683ms returns 0x00
T5DC8 000:063.339 JLINK_ExecCommand("DisableConnectionTimeout", ...). 
T5DC8 000:063.347 - 0.001ms returns 0x01
T5DC8 000:063.353 JLINK_GetHardwareVersion()
T5DC8 000:063.357 - 0.004ms returns 70000
T5DC8 000:063.363 JLINK_GetDLLVersion()
T5DC8 000:063.367 - 0.004ms returns 79608
T5DC8 000:063.372 JLINK_GetOEMString(...)
T5DC8 000:063.377 JLINK_GetFirmwareString(...)
T5DC8 000:063.381 - 0.004ms
T5DC8 000:071.666 JLINK_GetDLLVersion()
T5DC8 000:071.676 - 0.009ms returns 79608
T5DC8 000:071.681 JLINK_GetCompileDateTime()
T5DC8 000:071.684 - 0.003ms
T5DC8 000:077.258 JLINK_GetFirmwareString(...)
T5DC8 000:077.270 - 0.012ms
T5DC8 000:078.887 JLINK_GetHardwareVersion()
T5DC8 000:078.899 - 0.011ms returns 70000
T5DC8 000:080.741 JLINK_GetSN()
T5DC8 000:080.757 - 0.016ms returns 20090928
T5DC8 000:082.970 JLINK_GetOEMString(...)
T5DC8 000:089.137 JLINK_TIF_Select(JLINKARM_TIF_SWD)
T5DC8 000:090.392 - 1.254ms returns 0x00
T5DC8 000:090.441 JLINK_HasError()
T5DC8 000:090.520 JLINK_SetSpeed(5000)
T5DC8 000:090.899 - 0.381ms
T5DC8 000:090.913 JLINK_GetId()
T5DC8 000:094.574   InitTarget() start
T5DC8 000:094.596    J-Link Script File: Executing InitTarget()
T5DC8 000:098.855   Error: Failed to initialized DAP.
T5DC8 000:102.783   No PWR-AP detected.
T5DC8 000:106.229   InitTarget() end - Took 8.21ms
T5DC8 000:110.137   Found SW-DP with ID 0x6BA02477
T5DC8 000:118.532   Old FW that does not support reading DPIDR via DAP jobs
T5DC8 000:130.759   DPv0 detected
T5DC8 000:133.273   CoreSight SoC-400 or earlier
T5DC8 000:136.753   Scanning AP map to find all available APs
T5DC8 000:160.394   AP[5]: Stopped AP scan as end of AP map has been reached
T5DC8 000:162.145   AP[0]: AHB-AP (IDR: 0x84770001)
T5DC8 000:165.786   AP[1]: MEM-AP (IDR: 0x002E0001)
T5DC8 000:168.009   AP[2]: JTAG-AP (IDR: 0x002E0000)
T5DC8 000:170.248   AP[3]: MEM-AP (IDR: 0x002E0003)
T5DC8 000:171.932   AP[4]: MEM-AP (IDR: 0x002E0002)
T5DC8 000:173.836   Iterating through AP map to find AHB-AP to use
T5DC8 000:186.188   AP[0]: Core found
T5DC8 000:187.784   AP[0]: AHB-AP ROM base: 0xF0000000
T5DC8 000:196.302   CPUID register: 0x410CC601. Implementer code: 0x41 (ARM)
T5DC8 000:198.261   Found Cortex-M0 r0p1, Little endian.
T5DC8 000:199.181   -- Max. mem block: 0x00002C18
T5DC8 000:200.037   CPU_ReadMem(4 bytes @ 0xE000EDF0)
T5DC8 000:200.710   CPU_WriteMem(4 bytes @ 0xE000EDF0)
T5DC8 000:201.408   CPU_ReadMem(4 bytes @ 0xE0002000)
T5DC8 000:203.539   FPUnit: 4 code (BP) slots and 0 literal slots
T5DC8 000:203.552   CPU_ReadMem(4 bytes @ 0xE000EDFC)
T5DC8 000:204.208   CPU_WriteMem(4 bytes @ 0xE000EDFC)
T5DC8 000:204.880   CPU_ReadMem(4 bytes @ 0xE0001000)
T5DC8 000:205.523   CPU_WriteMem(4 bytes @ 0xE0001000)
T5DC8 000:207.687   CoreSight components:
T5DC8 000:212.336   ROMTbl[0] @ F0000000
T5DC8 000:212.354   CPU_ReadMem(64 bytes @ 0xF0000000)
T5DC8 000:213.682   CPU_ReadMem(32 bytes @ 0xE00FFFE0)
T5DC8 000:216.313   [0][0]: E00FF000 CID B105100D PID 000BB4C0 ROM Table
T5DC8 000:217.775   ROMTbl[1] @ E00FF000
T5DC8 000:217.788   CPU_ReadMem(64 bytes @ 0xE00FF000)
T5DC8 000:219.056   CPU_ReadMem(32 bytes @ 0xE000EFE0)
T5DC8 000:221.784   [1][0]: E000E000 CID B105E00D PID 000BB008 SCS
T5DC8 000:221.801   CPU_ReadMem(32 bytes @ 0xE0001FE0)
T5DC8 000:225.213   [1][1]: E0001000 CID B105E00D PID 000BB00A DWT
T5DC8 000:225.227   CPU_ReadMem(32 bytes @ 0xE0002FE0)
T5DC8 000:229.837   [1][2]: E0002000 CID B105E00D PID 000BB00B FPB
T5DC8 000:229.851   CPU_ReadMem(32 bytes @ 0x40402FE0)
T5DC8 000:233.348   [0][2]: 40402000 CID B105900D PID 001BB932 MTB-M0+
T5DC8 000:234.560 - 143.645ms returns 0x6BA02477
T5DC8 000:234.592 JLINK_GetDLLVersion()
T5DC8 000:234.597 - 0.004ms returns 79608
T5DC8 000:234.659 JLINK_CORE_GetFound()
T5DC8 000:234.664 - 0.005ms returns 0x60000FF
T5DC8 000:234.671 JLINK_GetDebugInfo(0x100 = JLINKARM_ROM_TABLE_ADDR_INDEX)
T5DC8 000:234.679   Value=0xF0000000
T5DC8 000:234.685 - 0.015ms returns 0
T5DC8 000:236.291 JLINK_GetDebugInfo(0x100 = JLINKARM_ROM_TABLE_ADDR_INDEX)
T5DC8 000:236.301   Value=0xF0000000
T5DC8 000:236.307 - 0.016ms returns 0
T5DC8 000:236.312 JLINK_GetDebugInfo(0x101 = JLINKARM_DEBUG_INFO_ETM_ADDR_INDEX)
T5DC8 000:236.316   Value=0x00000000
T5DC8 000:236.322 - 0.009ms returns 0
T5DC8 000:236.329 JLINK_ReadMemEx(0xE0041FF0, 0x10 Bytes, Flags = 0x02000004)
T5DC8 000:236.359   CPU_ReadMem(16 bytes @ 0xE0041FF0)
T5DC8 000:237.361   Data:  00 00 00 00 00 00 00 00 00 00 00 00 00 00 00 00
T5DC8 000:237.375 - 1.046ms returns 16 (0x10)
T5DC8 000:237.390 JLINK_GetDebugInfo(0x102 = JLINKARM_DEBUG_INFO_MTB_ADDR_INDEX)
T5DC8 000:237.394   Value=0x40402000
T5DC8 000:237.399 - 0.009ms returns 0
T5DC8 000:237.405 JLINK_CORE_GetFound()
T5DC8 000:237.408 - 0.004ms returns 0x60000FF
T5DC8 000:237.413 JLINK_GetDebugInfo(0x103 = JLINKARM_DEBUG_INFO_TPIU_ADDR_INDEX)
T5DC8 000:237.417   Value=0x00000000
T5DC8 000:237.423 - 0.009ms returns 0
T5DC8 000:237.427 JLINK_GetDebugInfo(0x104 = JLINKARM_DEBUG_INFO_ITM_ADDR_INDEX)
T5DC8 000:237.431   Value=0xE0000000
T5DC8 000:237.437 - 0.009ms returns 0
T5DC8 000:237.442 JLINK_GetDebugInfo(0x105 = JLINKARM_DEBUG_INFO_DWT_ADDR_INDEX)
T5DC8 000:237.445   Value=0xE0001000
T5DC8 000:237.451 - 0.009ms returns 0
T5DC8 000:237.456 JLINK_GetDebugInfo(0x106 = JLINKARM_DEBUG_INFO_FPB_ADDR_INDEX)
T5DC8 000:237.459   Value=0xE0002000
T5DC8 000:237.465 - 0.009ms returns 0
T5DC8 000:237.470 JLINK_GetDebugInfo(0x107 = JLINKARM_DEBUG_INFO_NVIC_ADDR_INDEX)
T5DC8 000:237.473   Value=0xE000E000
T5DC8 000:237.479 - 0.009ms returns 0
T5DC8 000:237.484 JLINK_GetDebugInfo(0x10C = JLINKARM_DEBUG_INFO_DBG_ADDR_INDEX)
T5DC8 000:237.487   Value=0xE000EDF0
T5DC8 000:237.493 - 0.009ms returns 0
T5DC8 000:237.498 JLINK_GetDebugInfo(0x01 = Unknown)
T5DC8 000:237.502   Value=0x00000000
T5DC8 000:237.507 - 0.009ms returns 0
T5DC8 000:237.512 JLINK_ReadMemU32(0xE000ED00, 0x1 Items)
T5DC8 000:237.518   CPU_ReadMem(4 bytes @ 0xE000ED00)
T5DC8 000:238.395   Data:  01 C6 0C 41
T5DC8 000:238.402   Debug reg: CPUID
T5DC8 000:238.408 - 0.895ms returns 1 (0x1)
T5DC8 000:238.414 JLINK_GetDebugInfo(0x10F = JLINKARM_DEBUG_INFO_HAS_CORTEX_M_SECURITY_EXT_INDEX)
T5DC8 000:238.417   Value=0x00000000
T5DC8 000:238.423 - 0.009ms returns 0
T5DC8 000:238.429 JLINK_HasError()
T5DC8 000:238.435 JLINK_SetResetType(JLINKARM_CM3_RESET_TYPE_NORMAL)
T5DC8 000:238.439 - 0.004ms returns JLINKARM_CM3_RESET_TYPE_NORMAL
T5DC8 000:238.443 JLINK_Reset()
T5DC8 000:240.028   ResetTarget() start
T5DC8 000:240.040    J-Link Script File: Executing ResetTarget()
T5DC8 000:240.050   CPU_ReadMem(4 bytes @ 0xE000EDF0)
T5DC8 000:241.109   CPU is running
T5DC8 000:241.125   CPU_WriteMem(4 bytes @ 0xE000EDF0)
T5DC8 000:241.874   CPU_ReadMem(4 bytes @ 0x400B0300)
T5DC8 000:242.636   CPU_ReadMem(4 bytes @ 0xE000EDFC)
T5DC8 000:243.421   CPU is running
T5DC8 000:243.452   CPU_WriteMem(4 bytes @ 0xE000EDFC)
T5DC8 000:244.308   CPU is running
T5DC8 000:244.333   CPU_WriteMem(4 bytes @ 0x400B0300)
T5DC8 000:245.140   CPU is running
T5DC8 000:245.147   CPU_WriteMem(4 bytes @ 0x400B0304)
T5DC8 000:246.088   CPU_ReadMem(4 bytes @ 0xE000EDF0)
T5DC8 000:252.509   DAP initialized successfully.
T5DC8 000:252.524   CPU is running
T5DC8 000:252.531   CPU_WriteMem(4 bytes @ 0xE000EDFC)
T5DC8 000:254.859   ResetTarget() end - Took 13.2ms
T5DC8 000:258.741   CPU_WriteMem(4 bytes @ 0xE0002000)
T5DC8 000:259.597   CPU_ReadMem(4 bytes @ 0xE000EDFC)
T5DC8 000:260.531   CPU_ReadMem(4 bytes @ 0xE0001000)
T5DC8 000:261.466   CPU_WriteMem(4 bytes @ 0xE0001000)
T5DC8 000:262.379 - 23.934ms
T5DC8 000:262.407 JLINK_Halt()
T5DC8 000:262.419 - 0.012ms returns 0x00
T5DC8 000:262.425 JLINK_ReadMemU32(0xE000EDF0, 0x1 Items)
T5DC8 000:262.432   CPU_ReadMem(4 bytes @ 0xE000EDF0)
T5DC8 000:263.303   Data:  03 00 03 01
T5DC8 000:263.312   Debug reg: DHCSR
T5DC8 000:263.318 - 0.893ms returns 1 (0x1)
T5DC8 000:263.327 JLINK_WriteU32_64(0xE000EDF0, 0xA05F0003)
T5DC8 000:263.332   Debug reg: DHCSR
T5DC8 000:263.629   CPU_WriteMem(4 bytes @ 0xE000EDF0)
T5DC8 000:264.569 - 1.241ms returns 0 (0x00000000)
T5DC8 000:264.586 JLINK_WriteU32_64(0xE000EDFC, 0x01000000)
T5DC8 000:264.595   Debug reg: DEMCR
T5DC8 000:264.611   CPU_WriteMem(4 bytes @ 0xE000EDFC)
T5DC8 000:265.570 - 0.984ms returns 0 (0x00000000)
T5DC8 000:272.040 JLINK_GetHWStatus(...)
T5DC8 000:272.670 - 0.629ms returns 0
T5DC8 000:284.708 JLINK_GetNumBPUnits(Type = 0xFFFFFF00)
T5DC8 000:284.725 - 0.016ms returns 0x04
T5DC8 000:284.731 JLINK_GetNumBPUnits(Type = 0xF0)
T5DC8 000:284.736 - 0.004ms returns 0x2000
T5DC8 000:284.743 JLINK_GetNumWPUnits()
T5DC8 000:284.748 - 0.004ms returns 2
T5DC8 000:290.935 JLINK_GetSpeed()
T5DC8 000:290.958 - 0.023ms returns 4000
T5DC8 000:295.413 JLINK_ReadMemU32(0xE000E004, 0x1 Items)
T5DC8 000:295.433   CPU_ReadMem(4 bytes @ 0xE000E004)
T5DC8 000:296.210   Data:  00 00 00 00
T5DC8 000:296.226 - 0.812ms returns 1 (0x1)
T5DC8 000:296.244 JLINK_Halt()
T5DC8 000:296.253 - 0.009ms returns 0x00
T5DC8 000:296.263 JLINK_IsHalted()
T5DC8 000:296.268 - 0.005ms returns TRUE
T5DC8 000:299.089 JLINK_WriteMem(0x20200000, 0x294 Bytes, ...)
T5DC8 000:299.098   Data:  00 BE 0A E0 0D 78 2D 06 68 40 08 24 40 00 00 D3 ...
T5DC8 000:299.497   CPU_WriteMem(660 bytes @ 0x20200000)
T5DC8 000:307.903 - 8.814ms returns 0x294
T5DC8 000:307.952 JLINK_HasError()
T5DC8 000:307.982 JLINK_WriteReg(R0, 0x00000000)
T5DC8 000:307.992 - 0.029ms returns 0
T5DC8 000:308.000 JLINK_WriteReg(R1, 0x00B71B00)
T5DC8 000:308.006 - 0.006ms returns 0
T5DC8 000:308.013 JLINK_WriteReg(R2, 0x00000001)
T5DC8 000:308.019 - 0.005ms returns 0
T5DC8 000:308.026 JLINK_WriteReg(R3, 0x00000000)
T5DC8 000:308.031 - 0.005ms returns 0
T5DC8 000:308.038 JLINK_WriteReg(R4, 0x00000000)
T5DC8 000:308.044 - 0.006ms returns 0
T5DC8 000:308.080 JLINK_WriteReg(R5, 0x00000000)
T5DC8 000:308.094 - 0.014ms returns 0
T5DC8 000:308.102 JLINK_WriteReg(R6, 0x00000000)
T5DC8 000:308.108 - 0.006ms returns 0
T5DC8 000:308.116 JLINK_WriteReg(R7, 0x00000000)
T5DC8 000:308.126 - 0.010ms returns 0
T5DC8 000:308.135 JLINK_WriteReg(R8, 0x00000000)
T5DC8 000:308.142 - 0.006ms returns 0
T5DC8 000:308.149 JLINK_WriteReg(R9, 0x20200290)
T5DC8 000:308.154 - 0.005ms returns 0
T5DC8 000:308.161 JLINK_WriteReg(R10, 0x00000000)
T5DC8 000:308.167 - 0.005ms returns 0
T5DC8 000:308.174 JLINK_WriteReg(R11, 0x00000000)
T5DC8 000:308.180 - 0.005ms returns 0
T5DC8 000:308.187 JLINK_WriteReg(R12, 0x00000000)
T5DC8 000:308.193 - 0.006ms returns 0
T5DC8 000:308.200 JLINK_WriteReg(R13 (SP), 0x20208000)
T5DC8 000:308.207 - 0.007ms returns 0
T5DC8 000:308.214 JLINK_WriteReg(R14, 0x20200001)
T5DC8 000:308.219 - 0.005ms returns 0
T5DC8 000:308.242 JLINK_WriteReg(R15 (PC), 0x20200038)
T5DC8 000:308.256 - 0.029ms returns 0
T5DC8 000:308.265 JLINK_WriteReg(XPSR, 0x01000000)
T5DC8 000:308.272 - 0.007ms returns 0
T5DC8 000:308.279 JLINK_WriteReg(MSP, 0x20208000)
T5DC8 000:308.286 - 0.006ms returns 0
T5DC8 000:308.293 JLINK_WriteReg(PSP, 0x20208000)
T5DC8 000:308.299 - 0.006ms returns 0
T5DC8 000:308.306 JLINK_WriteReg(CFBP, 0x00000000)
T5DC8 000:308.313 - 0.006ms returns 0
T5DC8 000:308.320 JLINK_SetBPEx(Addr = 0x20200000, Type = 0xFFFFFFF2)
T5DC8 000:308.333   CPU_ReadMem(2 bytes @ 0x20200000)
T5DC8 000:309.105 - 0.784ms returns 0x00000001
T5DC8 000:309.128 JLINK_Go()
T5DC8 000:309.139   CPU_WriteMem(2 bytes @ 0x20200000)
T5DC8 000:310.247   CPU_ReadMem(4 bytes @ 0xE0001000)
T5DC8 000:311.125   CPU_WriteMem(4 bytes @ 0xE0001000)
T5DC8 000:311.913   CPU_WriteMem(4 bytes @ 0xE0002008)
T5DC8 000:311.945   CPU_WriteMem(4 bytes @ 0xE000200C)
T5DC8 000:311.954   CPU_WriteMem(4 bytes @ 0xE0002010)
T5DC8 000:311.963   CPU_WriteMem(4 bytes @ 0xE0002014)
T5DC8 000:313.891   CPU_WriteMem(4 bytes @ 0xE0001004)
T5DC8 000:322.439   Memory map 'after startup completion point' is active
T5DC8 000:322.454 - 13.326ms
T5DC8 000:322.465 JLINK_IsHalted()
T5DC8 000:326.215   CPU_ReadMem(2 bytes @ 0x20200000)
T5DC8 000:326.986 - 4.520ms returns TRUE
T5DC8 000:327.028 JLINK_ReadReg(R15 (PC))
T5DC8 000:327.051 - 0.023ms returns 0x20200000
T5DC8 000:327.073 JLINK_ClrBPEx(BPHandle = 0x00000001)
T5DC8 000:327.085 - 0.013ms returns 0x00
T5DC8 000:327.091 JLINK_ReadReg(R0)
T5DC8 000:327.096 - 0.004ms returns 0x00000000
T5DC8 000:327.374 JLINK_HasError()
T5DC8 000:327.383 JLINK_WriteReg(R0, 0x00000000)
T5DC8 000:327.389 - 0.005ms returns 0
T5DC8 000:327.395 JLINK_WriteReg(R1, 0x00B71B00)
T5DC8 000:327.399 - 0.004ms returns 0
T5DC8 000:327.404 JLINK_WriteReg(R2, 0x00000001)
T5DC8 000:327.409 - 0.004ms returns 0
T5DC8 000:327.414 JLINK_WriteReg(R3, 0x00000000)
T5DC8 000:327.418 - 0.004ms returns 0
T5DC8 000:327.423 JLINK_WriteReg(R4, 0x00000000)
T5DC8 000:327.427 - 0.004ms returns 0
T5DC8 000:327.433 JLINK_WriteReg(R5, 0x00000000)
T5DC8 000:327.437 - 0.004ms returns 0
T5DC8 000:327.442 JLINK_WriteReg(R6, 0x00000000)
T5DC8 000:327.446 - 0.004ms returns 0
T5DC8 000:327.451 JLINK_WriteReg(R7, 0x00000000)
T5DC8 000:327.456 - 0.004ms returns 0
T5DC8 000:327.461 JLINK_WriteReg(R8, 0x00000000)
T5DC8 000:327.465 - 0.004ms returns 0
T5DC8 000:327.470 JLINK_WriteReg(R9, 0x20200290)
T5DC8 000:327.474 - 0.004ms returns 0
T5DC8 000:327.479 JLINK_WriteReg(R10, 0x00000000)
T5DC8 000:327.483 - 0.004ms returns 0
T5DC8 000:327.489 JLINK_WriteReg(R11, 0x00000000)
T5DC8 000:327.493 - 0.004ms returns 0
T5DC8 000:327.498 JLINK_WriteReg(R12, 0x00000000)
T5DC8 000:327.502 - 0.004ms returns 0
T5DC8 000:327.507 JLINK_WriteReg(R13 (SP), 0x20208000)
T5DC8 000:327.512 - 0.004ms returns 0
T5DC8 000:327.517 JLINK_WriteReg(R14, 0x20200001)
T5DC8 000:327.521 - 0.004ms returns 0
T5DC8 000:327.526 JLINK_WriteReg(R15 (PC), 0x2020010C)
T5DC8 000:327.531 - 0.004ms returns 0
T5DC8 000:327.536 JLINK_WriteReg(XPSR, 0x01000000)
T5DC8 000:327.540 - 0.004ms returns 0
T5DC8 000:327.545 JLINK_WriteReg(MSP, 0x20208000)
T5DC8 000:327.549 - 0.004ms returns 0
T5DC8 000:327.554 JLINK_WriteReg(PSP, 0x20208000)
T5DC8 000:327.559 - 0.004ms returns 0
T5DC8 000:327.564 JLINK_WriteReg(CFBP, 0x00000000)
T5DC8 000:327.610 - 0.046ms returns 0
T5DC8 000:327.618 JLINK_SetBPEx(Addr = 0x20200000, Type = 0xFFFFFFF2)
T5DC8 000:327.623 - 0.005ms returns 0x00000002
T5DC8 000:327.628 JLINK_Go()
T5DC8 000:327.638   CPU_ReadMem(4 bytes @ 0xE0001000)
T5DC8 000:332.137 - 4.508ms
T5DC8 000:332.152 JLINK_IsHalted()
T5DC8 000:332.883 - 0.731ms returns FALSE
T5DC8 000:332.895 JLINK_HasError()
T5DC8 000:349.337 JLINK_IsHalted()
T5DC8 000:353.177   CPU_ReadMem(2 bytes @ 0x20200000)
T5DC8 000:353.885 - 4.548ms returns TRUE
T5DC8 000:353.902 JLINK_ReadReg(R15 (PC))
T5DC8 000:353.908 - 0.006ms returns 0x20200000
T5DC8 000:353.914 JLINK_ClrBPEx(BPHandle = 0x00000002)
T5DC8 000:353.919 - 0.004ms returns 0x00
T5DC8 000:353.925 JLINK_ReadReg(R0)
T5DC8 000:353.929 - 0.004ms returns 0x00000000
T5DC8 000:406.574 JLINK_HasError()
T5DC8 000:406.625 JLINK_WriteReg(R0, 0x00000001)
T5DC8 000:406.640 - 0.014ms returns 0
T5DC8 000:406.648 JLINK_WriteReg(R1, 0x00B71B00)
T5DC8 000:406.654 - 0.006ms returns 0
T5DC8 000:406.661 JLINK_WriteReg(R2, 0x00000001)
T5DC8 000:406.667 - 0.006ms returns 0
T5DC8 000:406.674 JLINK_WriteReg(R3, 0x00000000)
T5DC8 000:406.679 - 0.005ms returns 0
T5DC8 000:406.686 JLINK_WriteReg(R4, 0x00000000)
T5DC8 000:406.692 - 0.006ms returns 0
T5DC8 000:406.699 JLINK_WriteReg(R5, 0x00000000)
T5DC8 000:406.705 - 0.005ms returns 0
T5DC8 000:406.711 JLINK_WriteReg(R6, 0x00000000)
T5DC8 000:406.717 - 0.005ms returns 0
T5DC8 000:406.724 JLINK_WriteReg(R7, 0x00000000)
T5DC8 000:406.730 - 0.005ms returns 0
T5DC8 000:406.737 JLINK_WriteReg(R8, 0x00000000)
T5DC8 000:406.743 - 0.006ms returns 0
T5DC8 000:406.749 JLINK_WriteReg(R9, 0x20200290)
T5DC8 000:406.755 - 0.005ms returns 0
T5DC8 000:406.762 JLINK_WriteReg(R10, 0x00000000)
T5DC8 000:406.768 - 0.005ms returns 0
T5DC8 000:406.774 JLINK_WriteReg(R11, 0x00000000)
T5DC8 000:406.780 - 0.006ms returns 0
T5DC8 000:406.787 JLINK_WriteReg(R12, 0x00000000)
T5DC8 000:406.793 - 0.005ms returns 0
T5DC8 000:406.800 JLINK_WriteReg(R13 (SP), 0x20208000)
T5DC8 000:406.808 - 0.007ms returns 0
T5DC8 000:406.814 JLINK_WriteReg(R14, 0x20200001)
T5DC8 000:406.820 - 0.005ms returns 0
T5DC8 000:406.827 JLINK_WriteReg(R15 (PC), 0x20200094)
T5DC8 000:406.833 - 0.006ms returns 0
T5DC8 000:406.840 JLINK_WriteReg(XPSR, 0x01000000)
T5DC8 000:406.846 - 0.006ms returns 0
T5DC8 000:406.853 JLINK_WriteReg(MSP, 0x20208000)
T5DC8 000:406.859 - 0.005ms returns 0
T5DC8 000:406.866 JLINK_WriteReg(PSP, 0x20208000)
T5DC8 000:406.872 - 0.005ms returns 0
T5DC8 000:406.879 JLINK_WriteReg(CFBP, 0x00000000)
T5DC8 000:406.884 - 0.005ms returns 0
T5DC8 000:406.892 JLINK_SetBPEx(Addr = 0x20200000, Type = 0xFFFFFFF2)
T5DC8 000:406.902 - 0.010ms returns 0x00000003
T5DC8 000:406.909 JLINK_Go()
T5DC8 000:406.940   CPU_ReadMem(4 bytes @ 0xE0001000)
T5DC8 000:411.355 - 4.444ms
T5DC8 000:411.387 JLINK_IsHalted()
T5DC8 000:415.176   CPU_ReadMem(2 bytes @ 0x20200000)
T5DC8 000:415.910 - 4.521ms returns TRUE
T5DC8 000:415.928 JLINK_ReadReg(R15 (PC))
T5DC8 000:415.940 - 0.013ms returns 0x20200000
T5DC8 000:415.951 JLINK_ClrBPEx(BPHandle = 0x00000003)
T5DC8 000:415.960 - 0.009ms returns 0x00
T5DC8 000:415.971 JLINK_ReadReg(R0)
T5DC8 000:415.979 - 0.008ms returns 0x00000000
T5DC8 000:422.945 JLINK_WriteMem(0x20200000, 0x294 Bytes, ...)
T5DC8 000:422.959   Data:  00 BE 0A E0 0D 78 2D 06 68 40 08 24 40 00 00 D3 ...
T5DC8 000:422.980   CPU_WriteMem(660 bytes @ 0x20200000)
T5DC8 000:431.239 - 8.293ms returns 0x294
T5DC8 000:431.323 JLINK_HasError()
T5DC8 000:431.335 JLINK_WriteReg(R0, 0x00000000)
T5DC8 000:431.346 - 0.011ms returns 0
T5DC8 000:431.354 JLINK_WriteReg(R1, 0x00B71B00)
T5DC8 000:431.361 - 0.007ms returns 0
T5DC8 000:431.370 JLINK_WriteReg(R2, 0x00000002)
T5DC8 000:431.377 - 0.007ms returns 0
T5DC8 000:431.385 JLINK_WriteReg(R3, 0x00000000)
T5DC8 000:431.392 - 0.007ms returns 0
T5DC8 000:431.400 JLINK_WriteReg(R4, 0x00000000)
T5DC8 000:431.407 - 0.007ms returns 0
T5DC8 000:431.415 JLINK_WriteReg(R5, 0x00000000)
T5DC8 000:431.422 - 0.006ms returns 0
T5DC8 000:431.498 JLINK_WriteReg(R6, 0x00000000)
T5DC8 000:431.509 - 0.010ms returns 0
T5DC8 000:431.518 JLINK_WriteReg(R7, 0x00000000)
T5DC8 000:431.525 - 0.007ms returns 0
T5DC8 000:431.533 JLINK_WriteReg(R8, 0x00000000)
T5DC8 000:431.540 - 0.007ms returns 0
T5DC8 000:431.548 JLINK_WriteReg(R9, 0x20200290)
T5DC8 000:431.555 - 0.007ms returns 0
T5DC8 000:431.564 JLINK_WriteReg(R10, 0x00000000)
T5DC8 000:431.570 - 0.007ms returns 0
T5DC8 000:431.579 JLINK_WriteReg(R11, 0x00000000)
T5DC8 000:431.586 - 0.007ms returns 0
T5DC8 000:431.594 JLINK_WriteReg(R12, 0x00000000)
T5DC8 000:431.601 - 0.007ms returns 0
T5DC8 000:431.609 JLINK_WriteReg(R13 (SP), 0x20208000)
T5DC8 000:431.617 - 0.007ms returns 0
T5DC8 000:431.625 JLINK_WriteReg(R14, 0x20200001)
T5DC8 000:431.632 - 0.006ms returns 0
T5DC8 000:431.640 JLINK_WriteReg(R15 (PC), 0x20200038)
T5DC8 000:431.647 - 0.007ms returns 0
T5DC8 000:431.655 JLINK_WriteReg(XPSR, 0x01000000)
T5DC8 000:431.662 - 0.007ms returns 0
T5DC8 000:431.670 JLINK_WriteReg(MSP, 0x20208000)
T5DC8 000:431.677 - 0.006ms returns 0
T5DC8 000:431.685 JLINK_WriteReg(PSP, 0x20208000)
T5DC8 000:431.692 - 0.006ms returns 0
T5DC8 000:431.700 JLINK_WriteReg(CFBP, 0x00000000)
T5DC8 000:431.707 - 0.006ms returns 0
T5DC8 000:431.716 JLINK_SetBPEx(Addr = 0x20200000, Type = 0xFFFFFFF2)
T5DC8 000:431.730   CPU_ReadMem(2 bytes @ 0x20200000)
T5DC8 000:432.473 - 0.757ms returns 0x00000004
T5DC8 000:432.491 JLINK_Go()
T5DC8 000:432.502   CPU_WriteMem(2 bytes @ 0x20200000)
T5DC8 000:433.247   CPU_ReadMem(4 bytes @ 0xE0001000)
T5DC8 000:437.389 - 4.898ms
T5DC8 000:437.406 JLINK_IsHalted()
T5DC8 000:441.205   CPU_ReadMem(2 bytes @ 0x20200000)
T5DC8 000:441.908 - 4.501ms returns TRUE
T5DC8 000:441.924 JLINK_ReadReg(R15 (PC))
T5DC8 000:441.932 - 0.008ms returns 0x20200000
T5DC8 000:441.940 JLINK_ClrBPEx(BPHandle = 0x00000004)
T5DC8 000:441.946 - 0.006ms returns 0x00
T5DC8 000:441.953 JLINK_ReadReg(R0)
T5DC8 000:441.959 - 0.006ms returns 0x00000000
T5DC8 000:442.425 JLINK_WriteMem(0x20200294, 0x16C Bytes, ...)
T5DC8 000:442.442   Data:  70 57 20 20 D5 00 00 00 D9 00 00 00 DB 00 00 00 ...
T5DC8 000:442.464   CPU_WriteMem(364 bytes @ 0x20200294)
T5DC8 000:447.427 - 5.002ms returns 0x16C
T5DC8 000:447.447 JLINK_WriteMem(0x20200400, 0x294 Bytes, ...)
T5DC8 000:447.454   Data:  6A 46 09 A8 0F 99 00 F0 CF FE 0D B0 08 BC 04 B0 ...
T5DC8 000:447.473   CPU_WriteMem(660 bytes @ 0x20200400)
T5DC8 000:456.042 - 8.594ms returns 0x294
T5DC8 000:456.070 JLINK_HasError()
T5DC8 000:456.083 JLINK_WriteReg(R0, 0x00000000)
T5DC8 000:456.096 - 0.012ms returns 0
T5DC8 000:456.106 JLINK_WriteReg(R1, 0x00000400)
T5DC8 000:456.115 - 0.008ms returns 0
T5DC8 000:456.125 JLINK_WriteReg(R2, 0x20200294)
T5DC8 000:456.133 - 0.008ms returns 0
T5DC8 000:456.143 JLINK_WriteReg(R3, 0x00000000)
T5DC8 000:456.151 - 0.008ms returns 0
T5DC8 000:456.161 JLINK_WriteReg(R4, 0x00000000)
T5DC8 000:456.169 - 0.008ms returns 0
T5DC8 000:456.179 JLINK_WriteReg(R5, 0x00000000)
T5DC8 000:456.188 - 0.008ms returns 0
T5DC8 000:456.198 JLINK_WriteReg(R6, 0x00000000)
T5DC8 000:456.206 - 0.008ms returns 0
T5DC8 000:456.216 JLINK_WriteReg(R7, 0x00000000)
T5DC8 000:456.224 - 0.008ms returns 0
T5DC8 000:456.234 JLINK_WriteReg(R8, 0x00000000)
T5DC8 000:456.243 - 0.008ms returns 0
T5DC8 000:456.253 JLINK_WriteReg(R9, 0x20200290)
T5DC8 000:456.261 - 0.008ms returns 0
T5DC8 000:456.271 JLINK_WriteReg(R10, 0x00000000)
T5DC8 000:456.279 - 0.008ms returns 0
T5DC8 000:456.289 JLINK_WriteReg(R11, 0x00000000)
T5DC8 000:456.297 - 0.008ms returns 0
T5DC8 000:456.307 JLINK_WriteReg(R12, 0x00000000)
T5DC8 000:456.315 - 0.008ms returns 0
T5DC8 000:456.326 JLINK_WriteReg(R13 (SP), 0x20208000)
T5DC8 000:456.335 - 0.009ms returns 0
T5DC8 000:456.346 JLINK_WriteReg(R14, 0x20200001)
T5DC8 000:456.357 - 0.011ms returns 0
T5DC8 000:456.369 JLINK_WriteReg(R15 (PC), 0x20200120)
T5DC8 000:456.379 - 0.010ms returns 0
T5DC8 000:456.394 JLINK_WriteReg(XPSR, 0x01000000)
T5DC8 000:456.404 - 0.010ms returns 0
T5DC8 000:456.472 JLINK_WriteReg(MSP, 0x20208000)
T5DC8 000:456.489 - 0.016ms returns 0
T5DC8 000:456.500 JLINK_WriteReg(PSP, 0x20208000)
T5DC8 000:456.508 - 0.008ms returns 0
T5DC8 000:456.518 JLINK_WriteReg(CFBP, 0x00000000)
T5DC8 000:456.526 - 0.008ms returns 0
T5DC8 000:456.537 JLINK_SetBPEx(Addr = 0x20200000, Type = 0xFFFFFFF2)
T5DC8 000:456.547 - 0.010ms returns 0x00000005
T5DC8 000:456.557 JLINK_Go()
T5DC8 000:456.576   CPU_ReadMem(4 bytes @ 0xE0001000)
T5DC8 000:460.776 - 4.218ms
T5DC8 000:460.799 JLINK_IsHalted()
T5DC8 000:461.550 - 0.750ms returns FALSE
T5DC8 000:461.565 JLINK_HasError()
T5DC8 000:464.667 JLINK_IsHalted()
T5DC8 000:465.389 - 0.721ms returns FALSE
T5DC8 000:465.407 JLINK_HasError()
T5DC8 000:467.179 JLINK_IsHalted()
T5DC8 000:471.080   CPU_ReadMem(2 bytes @ 0x20200000)
T5DC8 000:471.858 - 4.678ms returns TRUE
T5DC8 000:471.871 JLINK_ReadReg(R15 (PC))
T5DC8 000:471.881 - 0.009ms returns 0x20200000
T5DC8 000:471.890 JLINK_ClrBPEx(BPHandle = 0x00000005)
T5DC8 000:471.897 - 0.007ms returns 0x00
T5DC8 000:471.906 JLINK_ReadReg(R0)
T5DC8 000:471.914 - 0.007ms returns 0x00000000
T5DC8 000:472.569 JLINK_WriteMem(0x20200294, 0x16C Bytes, ...)
T5DC8 000:472.582   Data:  6D 1C 2D 2A 02 D0 00 22 04 92 09 E0 01 22 FB E7 ...
T5DC8 000:472.600   CPU_WriteMem(364 bytes @ 0x20200294)
T5DC8 000:477.777 - 5.206ms returns 0x16C
T5DC8 000:477.804 JLINK_WriteMem(0x20200400, 0x294 Bytes, ...)
T5DC8 000:477.816   Data:  00 98 30 28 EF D0 01 99 00 98 88 42 45 D1 80 20 ...
T5DC8 000:477.839   CPU_WriteMem(660 bytes @ 0x20200400)
T5DC8 000:486.157 - 8.352ms returns 0x294
T5DC8 000:486.233 JLINK_HasError()
T5DC8 000:486.248 JLINK_WriteReg(R0, 0x00000400)
T5DC8 000:486.259 - 0.010ms returns 0
T5DC8 000:486.266 JLINK_WriteReg(R1, 0x00000400)
T5DC8 000:486.273 - 0.006ms returns 0
T5DC8 000:486.279 JLINK_WriteReg(R2, 0x20200294)
T5DC8 000:486.285 - 0.006ms returns 0
T5DC8 000:486.292 JLINK_WriteReg(R3, 0x00000000)
T5DC8 000:486.298 - 0.005ms returns 0
T5DC8 000:486.305 JLINK_WriteReg(R4, 0x00000000)
T5DC8 000:486.311 - 0.005ms returns 0
T5DC8 000:486.318 JLINK_WriteReg(R5, 0x00000000)
T5DC8 000:486.324 - 0.005ms returns 0
T5DC8 000:486.330 JLINK_WriteReg(R6, 0x00000000)
T5DC8 000:486.336 - 0.005ms returns 0
T5DC8 000:486.343 JLINK_WriteReg(R7, 0x00000000)
T5DC8 000:486.349 - 0.006ms returns 0
T5DC8 000:486.356 JLINK_WriteReg(R8, 0x00000000)
T5DC8 000:486.362 - 0.005ms returns 0
T5DC8 000:486.369 JLINK_WriteReg(R9, 0x20200290)
T5DC8 000:486.375 - 0.005ms returns 0
T5DC8 000:486.381 JLINK_WriteReg(R10, 0x00000000)
T5DC8 000:486.387 - 0.005ms returns 0
T5DC8 000:486.394 JLINK_WriteReg(R11, 0x00000000)
T5DC8 000:486.400 - 0.005ms returns 0
T5DC8 000:486.407 JLINK_WriteReg(R12, 0x00000000)
T5DC8 000:486.413 - 0.005ms returns 0
T5DC8 000:486.420 JLINK_WriteReg(R13 (SP), 0x20208000)
T5DC8 000:486.426 - 0.006ms returns 0
T5DC8 000:486.433 JLINK_WriteReg(R14, 0x20200001)
T5DC8 000:486.439 - 0.006ms returns 0
T5DC8 000:486.446 JLINK_WriteReg(R15 (PC), 0x20200120)
T5DC8 000:486.452 - 0.006ms returns 0
T5DC8 000:486.459 JLINK_WriteReg(XPSR, 0x01000000)
T5DC8 000:486.465 - 0.005ms returns 0
T5DC8 000:486.471 JLINK_WriteReg(MSP, 0x20208000)
T5DC8 000:486.477 - 0.005ms returns 0
T5DC8 000:486.484 JLINK_WriteReg(PSP, 0x20208000)
T5DC8 000:486.489 - 0.005ms returns 0
T5DC8 000:486.496 JLINK_WriteReg(CFBP, 0x00000000)
T5DC8 000:486.502 - 0.005ms returns 0
T5DC8 000:486.509 JLINK_SetBPEx(Addr = 0x20200000, Type = 0xFFFFFFF2)
T5DC8 000:486.517 - 0.008ms returns 0x00000006
T5DC8 000:486.524 JLINK_Go()
T5DC8 000:486.539   CPU_ReadMem(4 bytes @ 0xE0001000)
T5DC8 000:490.730 - 4.204ms
T5DC8 000:490.751 JLINK_IsHalted()
T5DC8 000:491.591 - 0.838ms returns FALSE
T5DC8 000:491.627 JLINK_HasError()
T5DC8 000:495.161 JLINK_IsHalted()
T5DC8 000:495.862 - 0.699ms returns FALSE
T5DC8 000:495.883 JLINK_HasError()
T5DC8 000:499.326 JLINK_IsHalted()
T5DC8 000:502.938   CPU_ReadMem(2 bytes @ 0x20200000)
T5DC8 000:503.626 - 4.299ms returns TRUE
T5DC8 000:503.646 JLINK_ReadReg(R15 (PC))
T5DC8 000:503.661 - 0.015ms returns 0x20200000
T5DC8 000:503.671 JLINK_ClrBPEx(BPHandle = 0x00000006)
T5DC8 000:503.678 - 0.006ms returns 0x00
T5DC8 000:503.685 JLINK_ReadReg(R0)
T5DC8 000:503.691 - 0.006ms returns 0x00000000
T5DC8 000:504.270 JLINK_WriteMem(0x20200294, 0x16C Bytes, ...)
T5DC8 000:504.282   Data:  52 0A 84 18 E5 01 04 46 54 43 00 0A 12 0A 2E 04 ...
T5DC8 000:504.300   CPU_WriteMem(364 bytes @ 0x20200294)
T5DC8 000:509.269 - 4.998ms returns 0x16C
T5DC8 000:509.291 JLINK_WriteMem(0x20200400, 0x294 Bytes, ...)
T5DC8 000:509.298   Data:  16 43 44 D0 04 9A 00 2A 2D D0 02 9A 01 2A 03 9A ...
T5DC8 000:509.316   CPU_WriteMem(660 bytes @ 0x20200400)
T5DC8 000:517.567 - 8.275ms returns 0x294
T5DC8 000:517.594 JLINK_HasError()
T5DC8 000:517.606 JLINK_WriteReg(R0, 0x00000800)
T5DC8 000:517.619 - 0.012ms returns 0
T5DC8 000:517.628 JLINK_WriteReg(R1, 0x00000400)
T5DC8 000:517.634 - 0.006ms returns 0
T5DC8 000:517.642 JLINK_WriteReg(R2, 0x20200294)
T5DC8 000:517.648 - 0.006ms returns 0
T5DC8 000:517.656 JLINK_WriteReg(R3, 0x00000000)
T5DC8 000:517.662 - 0.006ms returns 0
T5DC8 000:517.669 JLINK_WriteReg(R4, 0x00000000)
T5DC8 000:517.676 - 0.006ms returns 0
T5DC8 000:517.734 JLINK_WriteReg(R5, 0x00000000)
T5DC8 000:517.747 - 0.013ms returns 0
T5DC8 000:517.755 JLINK_WriteReg(R6, 0x00000000)
T5DC8 000:517.762 - 0.006ms returns 0
T5DC8 000:517.769 JLINK_WriteReg(R7, 0x00000000)
T5DC8 000:517.775 - 0.006ms returns 0
T5DC8 000:517.783 JLINK_WriteReg(R8, 0x00000000)
T5DC8 000:517.789 - 0.006ms returns 0
T5DC8 000:517.796 JLINK_WriteReg(R9, 0x20200290)
T5DC8 000:517.802 - 0.006ms returns 0
T5DC8 000:517.809 JLINK_WriteReg(R10, 0x00000000)
T5DC8 000:517.815 - 0.006ms returns 0
T5DC8 000:517.822 JLINK_WriteReg(R11, 0x00000000)
T5DC8 000:517.828 - 0.006ms returns 0
T5DC8 000:517.836 JLINK_WriteReg(R12, 0x00000000)
T5DC8 000:517.841 - 0.006ms returns 0
T5DC8 000:517.849 JLINK_WriteReg(R13 (SP), 0x20208000)
T5DC8 000:517.857 - 0.008ms returns 0
T5DC8 000:517.864 JLINK_WriteReg(R14, 0x20200001)
T5DC8 000:517.870 - 0.006ms returns 0
T5DC8 000:517.877 JLINK_WriteReg(R15 (PC), 0x20200120)
T5DC8 000:517.883 - 0.006ms returns 0
T5DC8 000:517.890 JLINK_WriteReg(XPSR, 0x01000000)
T5DC8 000:517.896 - 0.006ms returns 0
T5DC8 000:517.903 JLINK_WriteReg(MSP, 0x20208000)
T5DC8 000:517.909 - 0.006ms returns 0
T5DC8 000:517.916 JLINK_WriteReg(PSP, 0x20208000)
T5DC8 000:517.922 - 0.005ms returns 0
T5DC8 000:517.929 JLINK_WriteReg(CFBP, 0x00000000)
T5DC8 000:517.935 - 0.005ms returns 0
T5DC8 000:517.943 JLINK_SetBPEx(Addr = 0x20200000, Type = 0xFFFFFFF2)
T5DC8 000:517.952 - 0.009ms returns 0x00000007
T5DC8 000:517.960 JLINK_Go()
T5DC8 000:517.979   CPU_ReadMem(4 bytes @ 0xE0001000)
T5DC8 000:522.132 - 4.171ms
T5DC8 000:522.151 JLINK_IsHalted()
T5DC8 000:523.136 - 0.983ms returns FALSE
T5DC8 000:523.153 JLINK_HasError()
T5DC8 000:524.389 JLINK_IsHalted()
T5DC8 000:525.131 - 0.741ms returns FALSE
T5DC8 000:525.147 JLINK_HasError()
T5DC8 000:526.423 JLINK_IsHalted()
T5DC8 000:527.210 - 0.785ms returns FALSE
T5DC8 000:527.245 JLINK_HasError()
T5DC8 000:528.920 JLINK_IsHalted()
T5DC8 000:532.764   CPU_ReadMem(2 bytes @ 0x20200000)
T5DC8 000:533.524 - 4.603ms returns TRUE
T5DC8 000:533.559 JLINK_ReadReg(R15 (PC))
T5DC8 000:533.580 - 0.021ms returns 0x20200000
T5DC8 000:533.590 JLINK_ClrBPEx(BPHandle = 0x00000007)
T5DC8 000:533.597 - 0.006ms returns 0x00
T5DC8 000:533.604 JLINK_ReadReg(R0)
T5DC8 000:533.610 - 0.005ms returns 0x00000000
T5DC8 000:534.215 JLINK_WriteMem(0x20200294, 0x16C Bytes, ...)
T5DC8 000:534.227   Data:  00 28 00 DB 10 1A 00 29 00 DB 51 1A 81 42 01 D8 ...
T5DC8 000:534.244   CPU_WriteMem(364 bytes @ 0x20200294)
T5DC8 000:539.349 - 5.134ms returns 0x16C
T5DC8 000:539.377 JLINK_WriteMem(0x20200400, 0x294 Bytes, ...)
T5DC8 000:539.386   Data:  01 23 10 E0 00 28 01 D0 00 20 C0 43 C0 46 C0 46 ...
T5DC8 000:539.410   CPU_WriteMem(660 bytes @ 0x20200400)
T5DC8 000:547.687 - 8.309ms returns 0x294
T5DC8 000:547.725 JLINK_HasError()
T5DC8 000:547.740 JLINK_WriteReg(R0, 0x00000C00)
T5DC8 000:547.756 - 0.017ms returns 0
T5DC8 000:547.763 JLINK_WriteReg(R1, 0x00000400)
T5DC8 000:547.768 - 0.004ms returns 0
T5DC8 000:547.772 JLINK_WriteReg(R2, 0x20200294)
T5DC8 000:547.776 - 0.004ms returns 0
T5DC8 000:547.781 JLINK_WriteReg(R3, 0x00000000)
T5DC8 000:547.785 - 0.004ms returns 0
T5DC8 000:547.790 JLINK_WriteReg(R4, 0x00000000)
T5DC8 000:547.794 - 0.003ms returns 0
T5DC8 000:547.800 JLINK_WriteReg(R5, 0x00000000)
T5DC8 000:547.804 - 0.003ms returns 0
T5DC8 000:547.870 JLINK_WriteReg(R6, 0x00000000)
T5DC8 000:547.875 - 0.005ms returns 0
T5DC8 000:547.880 JLINK_WriteReg(R7, 0x00000000)
T5DC8 000:547.884 - 0.003ms returns 0
T5DC8 000:547.888 JLINK_WriteReg(R8, 0x00000000)
T5DC8 000:547.892 - 0.004ms returns 0
T5DC8 000:547.897 JLINK_WriteReg(R9, 0x20200290)
T5DC8 000:547.901 - 0.004ms returns 0
T5DC8 000:547.906 JLINK_WriteReg(R10, 0x00000000)
T5DC8 000:547.910 - 0.004ms returns 0
T5DC8 000:547.915 JLINK_WriteReg(R11, 0x00000000)
T5DC8 000:547.919 - 0.004ms returns 0
T5DC8 000:547.923 JLINK_WriteReg(R12, 0x00000000)
T5DC8 000:547.927 - 0.004ms returns 0
T5DC8 000:547.932 JLINK_WriteReg(R13 (SP), 0x20208000)
T5DC8 000:547.937 - 0.004ms returns 0
T5DC8 000:547.942 JLINK_WriteReg(R14, 0x20200001)
T5DC8 000:547.945 - 0.003ms returns 0
T5DC8 000:547.950 JLINK_WriteReg(R15 (PC), 0x20200120)
T5DC8 000:547.954 - 0.004ms returns 0
T5DC8 000:547.959 JLINK_WriteReg(XPSR, 0x01000000)
T5DC8 000:547.963 - 0.004ms returns 0
T5DC8 000:547.968 JLINK_WriteReg(MSP, 0x20208000)
T5DC8 000:547.972 - 0.004ms returns 0
T5DC8 000:547.977 JLINK_WriteReg(PSP, 0x20208000)
T5DC8 000:547.981 - 0.003ms returns 0
T5DC8 000:547.985 JLINK_WriteReg(CFBP, 0x00000000)
T5DC8 000:547.989 - 0.004ms returns 0
T5DC8 000:547.995 JLINK_SetBPEx(Addr = 0x20200000, Type = 0xFFFFFFF2)
T5DC8 000:548.000 - 0.006ms returns 0x00000008
T5DC8 000:548.005 JLINK_Go()
T5DC8 000:548.017   CPU_ReadMem(4 bytes @ 0xE0001000)
T5DC8 000:552.390 - 4.384ms
T5DC8 000:552.411 JLINK_IsHalted()
T5DC8 000:553.189 - 0.777ms returns FALSE
T5DC8 000:553.221 JLINK_HasError()
T5DC8 000:555.175 JLINK_IsHalted()
T5DC8 000:556.146 - 0.969ms returns FALSE
T5DC8 000:556.180 JLINK_HasError()
T5DC8 000:557.733 JLINK_IsHalted()
T5DC8 000:558.447 - 0.713ms returns FALSE
T5DC8 000:558.470 JLINK_HasError()
T5DC8 000:560.142 JLINK_IsHalted()
T5DC8 000:563.790   CPU_ReadMem(2 bytes @ 0x20200000)
T5DC8 000:564.483 - 4.341ms returns TRUE
T5DC8 000:564.503 JLINK_ReadReg(R15 (PC))
T5DC8 000:564.519 - 0.016ms returns 0x20200000
T5DC8 000:564.526 JLINK_ClrBPEx(BPHandle = 0x00000008)
T5DC8 000:564.532 - 0.006ms returns 0x00
T5DC8 000:564.539 JLINK_ReadReg(R0)
T5DC8 000:564.545 - 0.005ms returns 0x00000000
T5DC8 000:565.125 JLINK_WriteMem(0x20200294, 0x16C Bytes, ...)
T5DC8 000:565.138   Data:  12 0E 52 42 8A 42 01 DB 00 20 70 47 C9 05 08 18 ...
T5DC8 000:565.154   CPU_WriteMem(364 bytes @ 0x20200294)
T5DC8 000:570.083 - 4.956ms returns 0x16C
T5DC8 000:570.123 JLINK_WriteMem(0x20200400, 0x294 Bytes, ...)
T5DC8 000:570.129   Data:  10 B5 00 29 04 DB 01 24 E4 07 40 42 8C 41 21 46 ...
T5DC8 000:570.145   CPU_WriteMem(660 bytes @ 0x20200400)
T5DC8 000:578.418 - 8.293ms returns 0x294
T5DC8 000:578.455 JLINK_HasError()
T5DC8 000:578.467 JLINK_WriteReg(R0, 0x00001000)
T5DC8 000:578.479 - 0.012ms returns 0
T5DC8 000:578.488 JLINK_WriteReg(R1, 0x00000400)
T5DC8 000:578.494 - 0.006ms returns 0
T5DC8 000:578.502 JLINK_WriteReg(R2, 0x20200294)
T5DC8 000:578.508 - 0.005ms returns 0
T5DC8 000:578.516 JLINK_WriteReg(R3, 0x00000000)
T5DC8 000:578.522 - 0.006ms returns 0
T5DC8 000:578.529 JLINK_WriteReg(R4, 0x00000000)
T5DC8 000:578.535 - 0.005ms returns 0
T5DC8 000:578.543 JLINK_WriteReg(R5, 0x00000000)
T5DC8 000:578.549 - 0.005ms returns 0
T5DC8 000:578.557 JLINK_WriteReg(R6, 0x00000000)
T5DC8 000:578.562 - 0.005ms returns 0
T5DC8 000:578.570 JLINK_WriteReg(R7, 0x00000000)
T5DC8 000:578.576 - 0.005ms returns 0
T5DC8 000:578.584 JLINK_WriteReg(R8, 0x00000000)
T5DC8 000:578.590 - 0.006ms returns 0
T5DC8 000:578.598 JLINK_WriteReg(R9, 0x20200290)
T5DC8 000:578.611 - 0.013ms returns 0
T5DC8 000:578.619 JLINK_WriteReg(R10, 0x00000000)
T5DC8 000:578.625 - 0.006ms returns 0
T5DC8 000:578.633 JLINK_WriteReg(R11, 0x00000000)
T5DC8 000:578.639 - 0.005ms returns 0
T5DC8 000:578.647 JLINK_WriteReg(R12, 0x00000000)
T5DC8 000:578.653 - 0.005ms returns 0
T5DC8 000:578.661 JLINK_WriteReg(R13 (SP), 0x20208000)
T5DC8 000:578.667 - 0.006ms returns 0
T5DC8 000:578.675 JLINK_WriteReg(R14, 0x20200001)
T5DC8 000:578.681 - 0.005ms returns 0
T5DC8 000:578.689 JLINK_WriteReg(R15 (PC), 0x20200120)
T5DC8 000:578.695 - 0.006ms returns 0
T5DC8 000:578.703 JLINK_WriteReg(XPSR, 0x01000000)
T5DC8 000:578.709 - 0.005ms returns 0
T5DC8 000:578.716 JLINK_WriteReg(MSP, 0x20208000)
T5DC8 000:578.722 - 0.005ms returns 0
T5DC8 000:578.730 JLINK_WriteReg(PSP, 0x20208000)
T5DC8 000:578.736 - 0.005ms returns 0
T5DC8 000:578.743 JLINK_WriteReg(CFBP, 0x00000000)
T5DC8 000:578.749 - 0.005ms returns 0
T5DC8 000:578.758 JLINK_SetBPEx(Addr = 0x20200000, Type = 0xFFFFFFF2)
T5DC8 000:578.765 - 0.008ms returns 0x00000009
T5DC8 000:578.773 JLINK_Go()
T5DC8 000:578.788   CPU_ReadMem(4 bytes @ 0xE0001000)
T5DC8 000:583.257 - 4.483ms
T5DC8 000:583.274 JLINK_IsHalted()
T5DC8 000:583.955 - 0.680ms returns FALSE
T5DC8 000:583.976 JLINK_HasError()
T5DC8 000:588.440 JLINK_IsHalted()
T5DC8 000:589.145 - 0.705ms returns FALSE
T5DC8 000:589.159 JLINK_HasError()
T5DC8 000:591.008 JLINK_IsHalted()
T5DC8 000:594.662   CPU_ReadMem(2 bytes @ 0x20200000)
T5DC8 000:595.392 - 4.383ms returns TRUE
T5DC8 000:595.417 JLINK_ReadReg(R15 (PC))
T5DC8 000:595.431 - 0.013ms returns 0x20200000
T5DC8 000:595.442 JLINK_ClrBPEx(BPHandle = 0x00000009)
T5DC8 000:595.452 - 0.009ms returns 0x00
T5DC8 000:595.463 JLINK_ReadReg(R0)
T5DC8 000:595.472 - 0.009ms returns 0x00000000
T5DC8 000:596.225 JLINK_WriteMem(0x20200294, 0x16C Bytes, ...)
T5DC8 000:596.241   Data:  F1 17 06 60 41 60 0E E7 06 60 0C E7 28 46 40 21 ...
T5DC8 000:596.263   CPU_WriteMem(364 bytes @ 0x20200294)
T5DC8 000:601.310 - 5.085ms returns 0x16C
T5DC8 000:601.331 JLINK_WriteMem(0x20200400, 0x294 Bytes, ...)
T5DC8 000:601.337   Data:  01 48 00 68 70 47 C0 46 20 10 00 40 01 48 00 68 ...
T5DC8 000:601.352   CPU_WriteMem(660 bytes @ 0x20200400)
T5DC8 000:609.566 - 8.233ms returns 0x294
T5DC8 000:609.590 JLINK_HasError()
T5DC8 000:609.603 JLINK_WriteReg(R0, 0x00001400)
T5DC8 000:609.614 - 0.011ms returns 0
T5DC8 000:609.625 JLINK_WriteReg(R1, 0x00000400)
T5DC8 000:609.632 - 0.007ms returns 0
T5DC8 000:609.642 JLINK_WriteReg(R2, 0x20200294)
T5DC8 000:609.650 - 0.007ms returns 0
T5DC8 000:609.660 JLINK_WriteReg(R3, 0x00000000)
T5DC8 000:609.667 - 0.007ms returns 0
T5DC8 000:609.677 JLINK_WriteReg(R4, 0x00000000)
T5DC8 000:609.685 - 0.007ms returns 0
T5DC8 000:609.695 JLINK_WriteReg(R5, 0x00000000)
T5DC8 000:609.702 - 0.007ms returns 0
T5DC8 000:609.712 JLINK_WriteReg(R6, 0x00000000)
T5DC8 000:609.719 - 0.007ms returns 0
T5DC8 000:609.729 JLINK_WriteReg(R7, 0x00000000)
T5DC8 000:609.737 - 0.007ms returns 0
T5DC8 000:609.747 JLINK_WriteReg(R8, 0x00000000)
T5DC8 000:609.754 - 0.007ms returns 0
T5DC8 000:609.764 JLINK_WriteReg(R9, 0x20200290)
T5DC8 000:609.772 - 0.007ms returns 0
T5DC8 000:609.782 JLINK_WriteReg(R10, 0x00000000)
T5DC8 000:609.789 - 0.007ms returns 0
T5DC8 000:609.798 JLINK_WriteReg(R11, 0x00000000)
T5DC8 000:609.805 - 0.007ms returns 0
T5DC8 000:609.814 JLINK_WriteReg(R12, 0x00000000)
T5DC8 000:609.821 - 0.007ms returns 0
T5DC8 000:609.830 JLINK_WriteReg(R13 (SP), 0x20208000)
T5DC8 000:609.837 - 0.008ms returns 0
T5DC8 000:609.846 JLINK_WriteReg(R14, 0x20200001)
T5DC8 000:609.853 - 0.007ms returns 0
T5DC8 000:609.862 JLINK_WriteReg(R15 (PC), 0x20200120)
T5DC8 000:609.869 - 0.007ms returns 0
T5DC8 000:609.878 JLINK_WriteReg(XPSR, 0x01000000)
T5DC8 000:609.885 - 0.007ms returns 0
T5DC8 000:609.895 JLINK_WriteReg(MSP, 0x20208000)
T5DC8 000:609.902 - 0.008ms returns 0
T5DC8 000:609.910 JLINK_WriteReg(PSP, 0x20208000)
T5DC8 000:609.917 - 0.006ms returns 0
T5DC8 000:609.928 JLINK_WriteReg(CFBP, 0x00000000)
T5DC8 000:609.936 - 0.008ms returns 0
T5DC8 000:609.945 JLINK_SetBPEx(Addr = 0x20200000, Type = 0xFFFFFFF2)
T5DC8 000:609.953 - 0.008ms returns 0x0000000A
T5DC8 000:609.961 JLINK_Go()
T5DC8 000:609.975   CPU_ReadMem(4 bytes @ 0xE0001000)
T5DC8 000:614.206 - 4.244ms
T5DC8 000:614.288 JLINK_IsHalted()
T5DC8 000:614.968 - 0.679ms returns FALSE
T5DC8 000:614.985 JLINK_HasError()
T5DC8 000:619.185 JLINK_IsHalted()
T5DC8 000:619.869 - 0.682ms returns FALSE
T5DC8 000:619.898 JLINK_HasError()
T5DC8 000:622.184 JLINK_IsHalted()
T5DC8 000:625.818   CPU_ReadMem(2 bytes @ 0x20200000)
T5DC8 000:626.616 - 4.431ms returns TRUE
T5DC8 000:626.634 JLINK_ReadReg(R15 (PC))
T5DC8 000:626.646 - 0.012ms returns 0x20200000
T5DC8 000:626.657 JLINK_ClrBPEx(BPHandle = 0x0000000A)
T5DC8 000:626.666 - 0.009ms returns 0x00
T5DC8 000:626.676 JLINK_ReadReg(R0)
T5DC8 000:626.685 - 0.008ms returns 0x00000000
T5DC8 000:627.458 JLINK_WriteMem(0x20200294, 0x16C Bytes, ...)
T5DC8 000:627.474   Data:  FE F7 96 FF 03 90 04 98 02 99 FE F7 E2 FF 01 46 ...
T5DC8 000:627.497   CPU_WriteMem(364 bytes @ 0x20200294)
T5DC8 000:632.498 - 5.039ms returns 0x16C
T5DC8 000:632.529 JLINK_WriteMem(0x20200400, 0x294 Bytes, ...)
T5DC8 000:632.542   Data:  DC 06 20 20 00 00 34 43 00 00 B4 C3 00 00 34 C3 ...
T5DC8 000:632.569   CPU_WriteMem(660 bytes @ 0x20200400)
T5DC8 000:640.945 - 8.415ms returns 0x294
T5DC8 000:640.964 JLINK_HasError()
T5DC8 000:640.976 JLINK_WriteReg(R0, 0x00001800)
T5DC8 000:640.987 - 0.011ms returns 0
T5DC8 000:640.998 JLINK_WriteReg(R1, 0x00000400)
T5DC8 000:641.006 - 0.008ms returns 0
T5DC8 000:641.018 JLINK_WriteReg(R2, 0x20200294)
T5DC8 000:641.027 - 0.008ms returns 0
T5DC8 000:641.037 JLINK_WriteReg(R3, 0x00000000)
T5DC8 000:641.045 - 0.008ms returns 0
T5DC8 000:641.117 JLINK_WriteReg(R4, 0x00000000)
T5DC8 000:641.145 - 0.028ms returns 0
T5DC8 000:641.160 JLINK_WriteReg(R5, 0x00000000)
T5DC8 000:641.171 - 0.011ms returns 0
T5DC8 000:641.183 JLINK_WriteReg(R6, 0x00000000)
T5DC8 000:641.194 - 0.010ms returns 0
T5DC8 000:641.207 JLINK_WriteReg(R7, 0x00000000)
T5DC8 000:641.217 - 0.010ms returns 0
T5DC8 000:641.230 JLINK_WriteReg(R8, 0x00000000)
T5DC8 000:641.240 - 0.010ms returns 0
T5DC8 000:641.253 JLINK_WriteReg(R9, 0x20200290)
T5DC8 000:641.263 - 0.010ms returns 0
T5DC8 000:641.276 JLINK_WriteReg(R10, 0x00000000)
T5DC8 000:641.287 - 0.011ms returns 0
T5DC8 000:641.299 JLINK_WriteReg(R11, 0x00000000)
T5DC8 000:641.310 - 0.010ms returns 0
T5DC8 000:641.333 JLINK_WriteReg(R12, 0x00000000)
T5DC8 000:641.344 - 0.010ms returns 0
T5DC8 000:641.357 JLINK_WriteReg(R13 (SP), 0x20208000)
T5DC8 000:641.369 - 0.012ms returns 0
T5DC8 000:641.381 JLINK_WriteReg(R14, 0x20200001)
T5DC8 000:641.392 - 0.010ms returns 0
T5DC8 000:641.405 JLINK_WriteReg(R15 (PC), 0x20200120)
T5DC8 000:641.416 - 0.011ms returns 0
T5DC8 000:641.429 JLINK_WriteReg(XPSR, 0x01000000)
T5DC8 000:641.439 - 0.010ms returns 0
T5DC8 000:641.452 JLINK_WriteReg(MSP, 0x20208000)
T5DC8 000:641.462 - 0.010ms returns 0
T5DC8 000:641.474 JLINK_WriteReg(PSP, 0x20208000)
T5DC8 000:641.485 - 0.010ms returns 0
T5DC8 000:641.497 JLINK_WriteReg(CFBP, 0x00000000)
T5DC8 000:641.507 - 0.010ms returns 0
T5DC8 000:641.521 JLINK_SetBPEx(Addr = 0x20200000, Type = 0xFFFFFFF2)
T5DC8 000:641.533 - 0.013ms returns 0x0000000B
T5DC8 000:641.540 JLINK_Go()
T5DC8 000:641.554   CPU_ReadMem(4 bytes @ 0xE0001000)
T5DC8 000:645.832 - 4.291ms
T5DC8 000:645.857 JLINK_IsHalted()
T5DC8 000:646.535 - 0.676ms returns FALSE
T5DC8 000:646.550 JLINK_HasError()
T5DC8 000:655.334 JLINK_IsHalted()
T5DC8 000:659.009   CPU_ReadMem(2 bytes @ 0x20200000)
T5DC8 000:659.698 - 4.363ms returns TRUE
T5DC8 000:659.715 JLINK_ReadReg(R15 (PC))
T5DC8 000:659.727 - 0.012ms returns 0x20200000
T5DC8 000:659.739 JLINK_ClrBPEx(BPHandle = 0x0000000B)
T5DC8 000:659.748 - 0.009ms returns 0x00
T5DC8 000:659.759 JLINK_ReadReg(R0)
T5DC8 000:659.768 - 0.009ms returns 0x00000000
T5DC8 000:660.547 JLINK_WriteMem(0x20200294, 0x16C Bytes, ...)
T5DC8 000:660.568   Data:  14 40 3A 07 12 0B 2D 03 AD B2 AA 18 32 43 00 9D ...
T5DC8 000:660.593   CPU_WriteMem(364 bytes @ 0x20200294)
T5DC8 000:665.572 - 5.024ms returns 0x16C
T5DC8 000:665.595 JLINK_WriteMem(0x20200400, 0x294 Bytes, ...)
T5DC8 000:665.605   Data:  08 60 73 49 89 68 4C 42 72 49 0C 60 FE F7 86 FF ...
T5DC8 000:665.625   CPU_WriteMem(660 bytes @ 0x20200400)
T5DC8 000:673.874 - 8.278ms returns 0x294
T5DC8 000:673.900 JLINK_HasError()
T5DC8 000:673.952 JLINK_WriteReg(R0, 0x00001C00)
T5DC8 000:673.965 - 0.013ms returns 0
T5DC8 000:673.975 JLINK_WriteReg(R1, 0x00000400)
T5DC8 000:673.984 - 0.008ms returns 0
T5DC8 000:673.994 JLINK_WriteReg(R2, 0x20200294)
T5DC8 000:674.002 - 0.008ms returns 0
T5DC8 000:674.012 JLINK_WriteReg(R3, 0x00000000)
T5DC8 000:674.021 - 0.008ms returns 0
T5DC8 000:674.031 JLINK_WriteReg(R4, 0x00000000)
T5DC8 000:674.039 - 0.008ms returns 0
T5DC8 000:674.049 JLINK_WriteReg(R5, 0x00000000)
T5DC8 000:674.057 - 0.008ms returns 0
T5DC8 000:674.067 JLINK_WriteReg(R6, 0x00000000)
T5DC8 000:674.075 - 0.008ms returns 0
T5DC8 000:674.085 JLINK_WriteReg(R7, 0x00000000)
T5DC8 000:674.094 - 0.008ms returns 0
T5DC8 000:674.104 JLINK_WriteReg(R8, 0x00000000)
T5DC8 000:674.140 - 0.036ms returns 0
T5DC8 000:674.150 JLINK_WriteReg(R9, 0x20200290)
T5DC8 000:674.159 - 0.008ms returns 0
T5DC8 000:674.169 JLINK_WriteReg(R10, 0x00000000)
T5DC8 000:674.177 - 0.008ms returns 0
T5DC8 000:674.187 JLINK_WriteReg(R11, 0x00000000)
T5DC8 000:674.195 - 0.008ms returns 0
T5DC8 000:674.259 JLINK_WriteReg(R12, 0x00000000)
T5DC8 000:674.267 - 0.008ms returns 0
T5DC8 000:674.278 JLINK_WriteReg(R13 (SP), 0x20208000)
T5DC8 000:674.287 - 0.009ms returns 0
T5DC8 000:674.297 JLINK_WriteReg(R14, 0x20200001)
T5DC8 000:674.315 - 0.017ms returns 0
T5DC8 000:674.326 JLINK_WriteReg(R15 (PC), 0x20200120)
T5DC8 000:674.331 - 0.005ms returns 0
T5DC8 000:674.338 JLINK_WriteReg(XPSR, 0x01000000)
T5DC8 000:674.342 - 0.005ms returns 0
T5DC8 000:674.348 JLINK_WriteReg(MSP, 0x20208000)
T5DC8 000:674.353 - 0.004ms returns 0
T5DC8 000:674.358 JLINK_WriteReg(PSP, 0x20208000)
T5DC8 000:674.363 - 0.004ms returns 0
T5DC8 000:674.369 JLINK_WriteReg(CFBP, 0x00000000)
T5DC8 000:674.373 - 0.004ms returns 0
T5DC8 000:674.380 JLINK_SetBPEx(Addr = 0x20200000, Type = 0xFFFFFFF2)
T5DC8 000:674.386 - 0.006ms returns 0x0000000C
T5DC8 000:674.392 JLINK_Go()
T5DC8 000:674.402   CPU_ReadMem(4 bytes @ 0xE0001000)
T5DC8 000:678.586 - 4.193ms
T5DC8 000:678.608 JLINK_IsHalted()
T5DC8 000:679.255 - 0.647ms returns FALSE
T5DC8 000:679.269 JLINK_HasError()
T5DC8 000:685.446 JLINK_IsHalted()
T5DC8 000:689.168   CPU_ReadMem(2 bytes @ 0x20200000)
T5DC8 000:689.861 - 4.415ms returns TRUE
T5DC8 000:689.876 JLINK_ReadReg(R15 (PC))
T5DC8 000:689.888 - 0.012ms returns 0x20200000
T5DC8 000:689.901 JLINK_ClrBPEx(BPHandle = 0x0000000C)
T5DC8 000:689.907 - 0.005ms returns 0x00
T5DC8 000:689.914 JLINK_ReadReg(R0)
T5DC8 000:689.919 - 0.005ms returns 0x00000000
T5DC8 000:690.550 JLINK_WriteMem(0x20200294, 0x16C Bytes, ...)
T5DC8 000:690.565   Data:  88 42 04 D2 00 21 30 46 FE F7 14 FE 03 E0 00 21 ...
T5DC8 000:690.583   CPU_WriteMem(364 bytes @ 0x20200294)
T5DC8 000:695.555 - 5.005ms returns 0x16C
T5DC8 000:695.567 JLINK_WriteMem(0x20200400, 0x294 Bytes, ...)
T5DC8 000:695.571   Data:  00 28 00 D1 A1 63 07 48 FE F7 2D FB 06 49 FE F7 ...
T5DC8 000:695.582   CPU_WriteMem(660 bytes @ 0x20200400)
T5DC8 000:703.845 - 8.276ms returns 0x294
T5DC8 000:703.874 JLINK_HasError()
T5DC8 000:703.963 JLINK_WriteReg(R0, 0x00002000)
T5DC8 000:703.985 - 0.022ms returns 0
T5DC8 000:703.993 JLINK_WriteReg(R1, 0x00000400)
T5DC8 000:703.999 - 0.005ms returns 0
T5DC8 000:704.005 JLINK_WriteReg(R2, 0x20200294)
T5DC8 000:704.013 - 0.008ms returns 0
T5DC8 000:704.020 JLINK_WriteReg(R3, 0x00000000)
T5DC8 000:704.026 - 0.006ms returns 0
T5DC8 000:704.033 JLINK_WriteReg(R4, 0x00000000)
T5DC8 000:704.039 - 0.005ms returns 0
T5DC8 000:704.045 JLINK_WriteReg(R5, 0x00000000)
T5DC8 000:704.053 - 0.007ms returns 0
T5DC8 000:704.065 JLINK_WriteReg(R6, 0x00000000)
T5DC8 000:704.073 - 0.008ms returns 0
T5DC8 000:704.082 JLINK_WriteReg(R7, 0x00000000)
T5DC8 000:704.088 - 0.006ms returns 0
T5DC8 000:704.095 JLINK_WriteReg(R8, 0x00000000)
T5DC8 000:704.101 - 0.006ms returns 0
T5DC8 000:704.110 JLINK_WriteReg(R9, 0x20200290)
T5DC8 000:704.116 - 0.005ms returns 0
T5DC8 000:704.123 JLINK_WriteReg(R10, 0x00000000)
T5DC8 000:704.129 - 0.006ms returns 0
T5DC8 000:704.135 JLINK_WriteReg(R11, 0x00000000)
T5DC8 000:704.158 - 0.022ms returns 0
T5DC8 000:704.166 JLINK_WriteReg(R12, 0x00000000)
T5DC8 000:704.172 - 0.005ms returns 0
T5DC8 000:704.178 JLINK_WriteReg(R13 (SP), 0x20208000)
T5DC8 000:704.184 - 0.006ms returns 0
T5DC8 000:704.190 JLINK_WriteReg(R14, 0x20200001)
T5DC8 000:704.195 - 0.005ms returns 0
T5DC8 000:704.202 JLINK_WriteReg(R15 (PC), 0x20200120)
T5DC8 000:704.207 - 0.005ms returns 0
T5DC8 000:704.216 JLINK_WriteReg(XPSR, 0x01000000)
T5DC8 000:704.221 - 0.005ms returns 0
T5DC8 000:704.227 JLINK_WriteReg(MSP, 0x20208000)
T5DC8 000:704.232 - 0.005ms returns 0
T5DC8 000:704.238 JLINK_WriteReg(PSP, 0x20208000)
T5DC8 000:704.243 - 0.005ms returns 0
T5DC8 000:704.251 JLINK_WriteReg(CFBP, 0x00000000)
T5DC8 000:704.257 - 0.007ms returns 0
T5DC8 000:704.264 JLINK_SetBPEx(Addr = 0x20200000, Type = 0xFFFFFFF2)
T5DC8 000:704.271 - 0.007ms returns 0x0000000D
T5DC8 000:704.277 JLINK_Go()
T5DC8 000:704.294   CPU_ReadMem(4 bytes @ 0xE0001000)
T5DC8 000:708.691 - 4.413ms
T5DC8 000:708.708 JLINK_IsHalted()
T5DC8 000:709.514 - 0.806ms returns FALSE
T5DC8 000:709.531 JLINK_HasError()
T5DC8 000:715.874 JLINK_IsHalted()
T5DC8 000:719.469   CPU_ReadMem(2 bytes @ 0x20200000)
T5DC8 000:720.136 - 4.261ms returns TRUE
T5DC8 000:720.162 JLINK_ReadReg(R15 (PC))
T5DC8 000:720.176 - 0.013ms returns 0x20200000
T5DC8 000:720.188 JLINK_ClrBPEx(BPHandle = 0x0000000D)
